T25C8 000:035.808   SEGGER J-Link V7.88h Log File
T25C8 000:035.904   DLL Compiled: Jun 16 2023 09:16:36
T25C8 000:035.923   Logging started @ 2023-11-30 11:08
T25C8 000:035.941 - 35.950ms
T25C8 000:035.963 JLINK_SetWarnOutHandler(...)
T25C8 000:035.987 - 0.033ms
T25C8 000:036.006 JLINK_OpenEx(...)
T25C8 000:037.237   Firmware: J-Link V9 compiled May  7 2021 16:26:12
T25C8 000:037.860   Firmware: J-Link V9 compiled May  7 2021 16:26:12
T25C8 000:038.038   Decompressing FW timestamp took 102 us
T25C8 000:045.676   Hardware: V9.60
T25C8 000:045.766   S/N: 69668151
T25C8 000:045.839   OEM: SEGGER
T25C8 000:045.912   Feature(s): RDI, GDB, FlashDL, FlashBP, JFlash
T25C8 000:047.090   Bootloader: (Could not read)
T25C8 000:048.404   TELNET listener socket opened on port 19021
T25C8 000:048.471   WEBSRV WEBSRV_Init(): Starting webserver thread(s)
T25C8 000:048.568   WEBSRV Webserver running on local port 19080
T25C8 000:048.650   Looking for J-Link GUI Server exe at: D:\Keil4\ARM\Segger\JLinkGUIServer.exe
T25C8 000:048.677   Looking for J-Link GUI Server exe at: D:\SEGGER\JLink_V788h\JLinkGUIServer.exe
T25C8 000:048.700   Forking J-Link GUI Server: D:\SEGGER\JLink_V788h\JLinkGUIServer.exe
T25C8 000:050.670   J-Link GUI Server info: "J-Link GUI server V7.88h "
T25C8 000:050.839 - 14.871ms returns "O.K."
T25C8 000:050.917 JLINK_SetErrorOutHandler(...)
T25C8 000:050.963 - 0.068ms
T25C8 000:051.004 JLINK_ExecCommand("ProjectFile = "E:\Xnode_Dev\Xnode_Development\XN_LTTest\Xnode-4G - Nov 29 2023 Backup\project\JLinkSettings.ini"", ...). 
T25C8 000:057.503   Ref file found at: D:\Keil4\ARM\Segger\JLinkDevices.ref
T25C8 000:057.570   REF file references invalid XML file: D:\SEGGER\JLink_V788h\JLinkDevices.xml
T25C8 000:060.705   Device "ADUCM350" selected.
T25C8 000:060.982 - 9.988ms returns 0x00
T25C8 000:065.334 JLINK_ExecCommand("Device = LPC4357", ...). 
T25C8 000:067.383   Device "ADUCM350" selected.
T25C8 000:067.645 - 2.295ms returns 0x00
T25C8 000:067.668 JLINK_ExecCommand("DisableConnectionTimeout", ...). 
T25C8 000:067.688 - 0.010ms returns 0x01
T25C8 000:067.708 JLINK_GetHardwareVersion()
T25C8 000:067.727 - 0.027ms returns 96000
T25C8 000:067.748 JLINK_GetDLLVersion()
T25C8 000:067.767 - 0.027ms returns 78808
T25C8 000:067.786 JLINK_GetOEMString(...)
T25C8 000:067.805 JLINK_GetFirmwareString(...)
T25C8 000:067.823 - 0.027ms
T25C8 000:073.655 JLINK_GetDLLVersion()
T25C8 000:073.680 - 0.034ms returns 78808
T25C8 000:073.699 JLINK_GetCompileDateTime()
T25C8 000:073.718 - 0.027ms
T25C8 000:075.573 JLINK_GetFirmwareString(...)
T25C8 000:075.597 - 0.034ms
T25C8 000:077.575 JLINK_GetHardwareVersion()
T25C8 000:077.601 - 0.034ms returns 96000
T25C8 000:079.841 JLINK_GetSN()
T25C8 000:079.865 - 0.033ms returns 69668151
T25C8 000:081.685 JLINK_GetOEMString(...)
T25C8 000:085.290 JLINK_TIF_Select(JLINKARM_TIF_JTAG)
T25C8 000:087.493 - 2.216ms returns 0x00
T25C8 000:087.517 JLINK_HasError()
T25C8 000:087.541 JLINK_SetSpeed(10000)
T25C8 000:087.948 - 0.422ms
T25C8 000:087.976 JLINK_GetIdData(pIdData)
T25C8 000:091.326   TotalIRLen = 8, IRPrint = 0x0011
T25C8 000:094.058   JTAG chain detection found 2 devices:
T25C8 000:096.002    #0 Id: 0x4BA00477, IRLen: 04, CoreSight JTAG-DP
T25C8 000:098.034    #1 Id: 0x0BA01477, IRLen: 04, CoreSight JTAG-DP
T25C8 000:102.193   DPv0 detected
T25C8 000:104.061   Scanning AP map to find all available APs
T25C8 000:106.872   AP[1]: Stopped AP scan as end of AP map has been reached
T25C8 000:108.748   AP[0]: AHB-AP (IDR: 0x24770011)
T25C8 000:111.696   Iterating through AP map to find AHB-AP to use
T25C8 000:114.917   AP[0]: Core found
T25C8 000:116.806   AP[0]: AHB-AP ROM base: 0xE00FF000
T25C8 000:119.690   CPUID register: 0x410FC241. Implementer code: 0x41 (ARM)
T25C8 000:121.581   Found Cortex-M4 r0p1, Little endian.
T25C8 000:123.485   Identified core does not match configuration. (Found: Cortex-M4, Configured: Cortex-M3)
T25C8 000:124.414   -- Max. mem block: 0x00010C40
T25C8 000:125.650   CPU_ReadMem(4 bytes @ 0xE000EDF0)
T25C8 000:126.133   CPU_WriteMem(4 bytes @ 0xE000EDF0)
T25C8 000:126.609   CPU_ReadMem(4 bytes @ 0xE0002000)
T25C8 000:129.683   FPUnit: 6 code (BP) slots and 2 literal slots
T25C8 000:129.719   CPU_ReadMem(4 bytes @ 0xE000EDFC)
T25C8 000:130.134   CPU_WriteMem(4 bytes @ 0xE000EDFC)
T25C8 000:130.611   CPU_ReadMem(4 bytes @ 0xE0001000)
T25C8 000:130.994   CPU_WriteMem(4 bytes @ 0xE0001000)
T25C8 000:131.395   CPU_ReadMem(4 bytes @ 0xE000ED88)
T25C8 000:131.889   CPU_WriteMem(4 bytes @ 0xE000ED88)
T25C8 000:132.355   CPU_ReadMem(4 bytes @ 0xE000ED88)
T25C8 000:132.743   CPU_WriteMem(4 bytes @ 0xE000ED88)
T25C8 000:135.053   CoreSight components:
T25C8 000:136.967   ROMTbl[0] @ E00FF000
T25C8 000:137.002   CPU_ReadMem(64 bytes @ 0xE00FF000)
T25C8 000:137.651   CPU_ReadMem(32 bytes @ 0xE000EFE0)
T25C8 000:140.666   [0][0]: E000E000 CID B105E00D PID 000BB00C SCS-M7
T25C8 000:140.703   CPU_ReadMem(32 bytes @ 0xE0001FE0)
T25C8 000:143.599   [0][1]: E0001000 CID B105E00D PID 003BB002 DWT
T25C8 000:143.635   CPU_ReadMem(32 bytes @ 0xE0002FE0)
T25C8 000:146.091   [0][2]: E0002000 CID B105E00D PID 002BB003 FPB
T25C8 000:146.127   CPU_ReadMem(32 bytes @ 0xE0000FE0)
T25C8 000:148.771   [0][3]: E0000000 CID B105E00D PID 003BB001 ITM
T25C8 000:148.807   CPU_ReadMem(32 bytes @ 0xE0040FE0)
T25C8 000:152.138   [0][4]: E0040000 CID B105900D PID 000BB9A1 TPIU
T25C8 000:152.175   CPU_ReadMem(32 bytes @ 0xE0041FE0)
T25C8 000:154.862   [0][5]: E0041000 CID B105900D PID 000BB925 ETM
T25C8 000:154.913   pIdData->ScanLen=8
T25C8 000:154.941   
T25C8 000:154.959   pIdData->NumDevices=2
T25C8 000:154.987   
T25C8 000:155.005   pIdData->aId[0]=0x4BA00477
T25C8 000:155.032   
T25C8 000:155.051   pIdData->aIrRead[0]=0
T25C8 000:155.078   
T25C8 000:155.096   pIdData->aScanLen[0]=0
T25C8 000:155.124   
T25C8 000:155.142   pIdData->aScanRead[0]=0
T25C8 000:155.169   
T25C8 000:155.188 - 67.221ms
T25C8 000:155.214 JLINK_JTAG_GetDeviceID(DeviceIndex = 0)
T25C8 000:155.234 - 0.028ms returns 1268778103
T25C8 000:155.254 JLINK_JTAG_GetDeviceInfo(DeviceIndex = 0)
T25C8 000:155.273 - 0.027ms returns 0
T25C8 000:155.293 JLINK_JTAG_GetDeviceID(DeviceIndex = 1)
T25C8 000:155.312 - 0.027ms returns 195040375
T25C8 000:155.332 JLINK_JTAG_GetDeviceInfo(DeviceIndex = 1)
T25C8 000:155.350 - 0.027ms returns 0
T25C8 000:155.374 JLINK_GetDeviceFamily
T25C8 000:155.393 - 0.027ms returns 14
T25C8 000:157.334 JLINK_ReadMem(0xE00FFFF0, 0x10 Bytes, ...)
T25C8 000:157.370   CPU_ReadMem(16 bytes @ 0xE00FFFF0)
T25C8 000:157.917   Data:  0D 00 00 00 10 00 00 00 05 00 00 00 B1 00 00 00
T25C8 000:157.954 - 0.629ms returns 0
T25C8 000:157.975 JLINK_ReadMem(0xE00FFFD0, 0x20 Bytes, ...)
T25C8 000:157.997   CPU_ReadMem(32 bytes @ 0xE00FFFD0)
T25C8 000:158.575   Data:  04 00 00 00 00 00 00 00 00 00 00 00 00 00 00 00 ...
T25C8 000:158.606 - 0.640ms returns 0
T25C8 000:158.626 JLINK_ReadMem(0xE00FF000, 0x18 Bytes, ...)
T25C8 000:158.647   CPU_ReadMem(24 bytes @ 0xE00FF000)
T25C8 000:159.172   Data:  03 F0 F0 FF 03 20 F0 FF 03 30 F0 FF 03 10 F0 FF ...
T25C8 000:159.200 - 0.583ms returns 0
T25C8 000:159.226 JLINK_ReadMemU32(0xE000ED00, 0x1 Items)
T25C8 000:159.246   CPU_ReadMem(4 bytes @ 0xE000ED00)
T25C8 000:159.616   Data:  41 C2 0F 41
T25C8 000:159.645   Debug reg: CPUID
T25C8 000:159.673 - 0.456ms returns 1 (0x1)
T25C8 000:159.693 JLINK_ReadMemU32(0xE000EF40, 0x1 Items)
T25C8 000:159.713   CPU_ReadMem(4 bytes @ 0xE000EF40)
T25C8 000:160.124   Data:  21 00 11 10
T25C8 000:160.158 - 0.475ms returns 1 (0x1)
T25C8 000:160.179 JLINK_ReadMemU32(0xE000EF44, 0x1 Items)
T25C8 000:160.201   CPU_ReadMem(4 bytes @ 0xE000EF44)
T25C8 000:160.631   Data:  11 00 00 11
T25C8 000:160.665 - 0.495ms returns 1 (0x1)
T25C8 000:160.687 JLINK_HasError()
T25C8 000:160.706 JLINK_SetResetType(JLINKARM_CM3_RESET_TYPE_NORMAL)
T25C8 000:160.725 - 0.027ms returns JLINKARM_CM3_RESET_TYPE_NORMAL
T25C8 000:160.744 JLINK_Reset()
T25C8 000:163.320   ResetTarget() start
T25C8 000:163.355    J-Link Script File: Executing ResetTarget()
T25C8 000:163.380   CPU_ReadMem(2 bytes @ 0x40002410)
T25C8 000:163.966   CPU is running
T25C8 000:163.996   CPU_WriteMem(4 bytes @ 0xE000EDFC)
T25C8 000:164.369   CPU is running
T25C8 000:164.398   CPU_WriteMem(4 bytes @ 0xE0001020)
T25C8 000:164.863   CPU is running
T25C8 000:164.897   CPU_WriteMem(4 bytes @ 0xE0001024)
T25C8 000:165.358   CPU is running
T25C8 000:165.388   CPU_WriteMem(4 bytes @ 0xE0001028)
T25C8 000:165.860   CPU is running
T25C8 000:165.889   CPU_WriteMem(4 bytes @ 0xE000ED0C)
T25C8 000:371.773   Core did not halt after reset, manually halting CPU...
T25C8 000:373.354   CPU_ReadMem(4 bytes @ 0xE000EDF0)
T25C8 000:373.752   CPU_WriteMem(4 bytes @ 0xE000EDFC)
T25C8 000:374.242   CPU_WriteMem(4 bytes @ 0xE0001028)
T25C8 000:374.774   CPU_ReadMem(64 bytes @ 0x00000000)
T25C8 000:375.501    -- Updating C cache (64 bytes @ 0x00000000)
T25C8 000:375.531    -- Read from C cache (4 bytes @ 0x00000000)
T25C8 000:378.204    -- Read from C cache (4 bytes @ 0x00000004)
T25C8 000:382.743   ResetTarget() end - Took 217ms
T25C8 000:384.220   CPU_WriteMem(4 bytes @ 0xE0002000)
T25C8 000:384.611   CPU_ReadMem(4 bytes @ 0xE000EDFC)
T25C8 000:384.994   CPU_ReadMem(4 bytes @ 0xE0001000)
T25C8 000:385.378 - 224.643ms
T25C8 000:385.426 JLINK_Halt()
T25C8 000:385.445 - 0.028ms returns 0x00
T25C8 000:385.464 JLINK_IsHalted()
T25C8 000:385.486 - 0.031ms returns TRUE
T25C8 000:385.506 JLINK_ReadMemU32(0xE000EDF0, 0x1 Items)
T25C8 000:385.528   CPU_ReadMem(4 bytes @ 0xE000EDF0)
T25C8 000:385.994   Data:  03 00 03 00
T25C8 000:386.023   Debug reg: DHCSR
T25C8 000:386.050 - 0.552ms returns 1 (0x1)
T25C8 000:386.069 JLINK_WriteU32_64(0xE000EDF0, 0xA05F0003)
T25C8 000:386.088   Debug reg: DHCSR
T25C8 000:386.276   CPU_WriteMem(4 bytes @ 0xE000EDF0)
T25C8 000:386.745 - 0.711ms returns 0 (0x00000000)
T25C8 000:386.809 JLINK_WriteU32_64(0xE000EDFC, 0x01000000)
T25C8 000:386.855   Debug reg: DEMCR
T25C8 000:386.929   CPU_WriteMem(4 bytes @ 0xE000EDFC)
T25C8 000:387.388 - 0.606ms returns 0 (0x00000000)
T25C8 000:394.898 JLINK_GetHWStatus(...)
T25C8 000:395.279 - 0.393ms returns 0
T25C8 000:400.936 JLINK_GetNumBPUnits(Type = 0xFFFFFF00)
T25C8 000:400.962 - 0.034ms returns 0x06
T25C8 000:400.981 JLINK_GetNumBPUnits(Type = 0xF0)
T25C8 000:401.000 - 0.028ms returns 0x2000
T25C8 000:401.019 JLINK_GetNumWPUnits()
T25C8 000:401.038 - 0.027ms returns 4
T25C8 000:407.115 JLINK_GetSpeed()
T25C8 000:407.140 - 0.034ms returns 10000
T25C8 000:411.600 JLINK_ReadMemU32(0xE000E004, 0x1 Items)
T25C8 000:411.644   CPU_ReadMem(4 bytes @ 0xE000E004)
T25C8 000:412.128   Data:  01 00 00 00
T25C8 000:412.159 - 0.567ms returns 1 (0x1)
T25C8 000:412.179 JLINK_ReadMemU32(0xE000E004, 0x1 Items)
T25C8 000:412.199   CPU_ReadMem(4 bytes @ 0xE000E004)
T25C8 000:412.622   Data:  01 00 00 00
T25C8 000:412.651 - 0.481ms returns 1 (0x1)
T25C8 000:412.671 JLINK_WriteMem(0xE0001000, 0x1C Bytes, ...)
T25C8 000:412.689   Data:  01 00 00 00 00 00 00 00 00 00 00 00 00 00 00 00 ...
T25C8 000:412.725   CPU_WriteMem(28 bytes @ 0xE0001000)
T25C8 000:413.163 - 0.502ms returns 0x1C
T25C8 000:413.184 JLINK_ReadMem(0xE0001000, 0x1C Bytes, ...)
T25C8 000:413.205   CPU_ReadMem(28 bytes @ 0xE0001000)
T25C8 000:413.685   Data:  01 00 00 40 00 00 00 00 00 00 00 00 00 00 00 00 ...
T25C8 000:413.712 - 0.537ms returns 0
T25C8 000:413.734 JLINK_Halt()
T25C8 000:413.752 - 0.027ms returns 0x00
T25C8 000:413.770 JLINK_IsHalted()
T25C8 000:413.789 - 0.027ms returns TRUE
T25C8 000:415.787 JLINK_WriteMem(0x10000000, 0x2B4 Bytes, ...)
T25C8 000:415.809   Data:  00 BE 0A E0 0D 78 2D 06 68 40 08 24 40 00 00 D3 ...
T25C8 000:415.981   CPU_WriteMem(692 bytes @ 0x10000000)
T25C8 000:417.473 - 1.716ms returns 0x2B4
T25C8 000:417.556 JLINK_HasError()
T25C8 000:417.623 JLINK_WriteReg(R0, 0x1A000000)
T25C8 000:417.671 - 0.070ms returns 0
T25C8 000:417.715 JLINK_WriteReg(R1, 0x00B71B00)
T25C8 000:417.734 - 0.027ms returns 0
T25C8 000:417.752 JLINK_WriteReg(R2, 0x00000001)
T25C8 000:417.770 - 0.027ms returns 0
T25C8 000:417.789 JLINK_WriteReg(R3, 0x00000000)
T25C8 000:417.807 - 0.027ms returns 0
T25C8 000:417.826 JLINK_WriteReg(R4, 0x00000000)
T25C8 000:417.845 - 0.027ms returns 0
T25C8 000:417.863 JLINK_WriteReg(R5, 0x00000000)
T25C8 000:417.881 - 0.026ms returns 0
T25C8 000:417.900 JLINK_WriteReg(R6, 0x00000000)
T25C8 000:417.918 - 0.026ms returns 0
T25C8 000:417.936 JLINK_WriteReg(R7, 0x00000000)
T25C8 000:417.955 - 0.027ms returns 0
T25C8 000:417.973 JLINK_WriteReg(R8, 0x00000000)
T25C8 000:417.994 - 0.029ms returns 0
T25C8 000:418.013 JLINK_WriteReg(R9, 0x100002A4)
T25C8 000:418.030 - 0.026ms returns 0
T25C8 000:418.049 JLINK_WriteReg(R10, 0x00000000)
T25C8 000:418.067 - 0.026ms returns 0
T25C8 000:418.085 JLINK_WriteReg(R11, 0x00000000)
T25C8 000:418.103 - 0.026ms returns 0
T25C8 000:418.122 JLINK_WriteReg(R12, 0x00000000)
T25C8 000:418.140 - 0.026ms returns 0
T25C8 000:418.158 JLINK_WriteReg(R13 (SP), 0x10000800)
T25C8 000:418.177 - 0.027ms returns 0
T25C8 000:418.195 JLINK_WriteReg(R14, 0x10000001)
T25C8 000:418.213 - 0.026ms returns 0
T25C8 000:418.232 JLINK_WriteReg(R15 (PC), 0x10000046)
T25C8 000:418.251 - 0.028ms returns 0
T25C8 000:418.270 JLINK_WriteReg(XPSR, 0x01000000)
T25C8 000:418.288 - 0.027ms returns 0
T25C8 000:418.306 JLINK_WriteReg(MSP, 0x10000800)
T25C8 000:418.324 - 0.026ms returns 0
T25C8 000:418.343 JLINK_WriteReg(PSP, 0x10000800)
T25C8 000:418.361 - 0.026ms returns 0
T25C8 000:418.379 JLINK_WriteReg(CFBP, 0x00000000)
T25C8 000:418.397 - 0.026ms returns 0
T25C8 000:418.416 JLINK_SetBPEx(Addr = 0x10000000, Type = 0xFFFFFFF2)
T25C8 000:418.435 - 0.027ms returns 0x00000001
T25C8 000:418.453 JLINK_Go()
T25C8 000:418.486   CPU_ReadMem(4 bytes @ 0xE0001000)
T25C8 000:418.884   CPU_WriteMem(4 bytes @ 0xE0002008)
T25C8 000:418.954   CPU_WriteMem(4 bytes @ 0xE000200C)
T25C8 000:419.020   CPU_WriteMem(4 bytes @ 0xE0002010)
T25C8 000:419.086   CPU_WriteMem(4 bytes @ 0xE0002014)
T25C8 000:419.152   CPU_WriteMem(4 bytes @ 0xE0002018)
T25C8 000:419.217   CPU_WriteMem(4 bytes @ 0xE000201C)
T25C8 000:420.342   CPU_WriteMem(4 bytes @ 0xE0001004)
T25C8 000:422.300 - 3.881ms
T25C8 000:422.363 JLINK_IsHalted()
T25C8 000:423.974 - 1.643ms returns TRUE
T25C8 000:424.033 JLINK_ReadReg(R15 (PC))
T25C8 000:424.079 - 0.069ms returns 0x10000000
T25C8 000:424.126 JLINK_ClrBPEx(BPHandle = 0x00000001)
T25C8 000:424.171 - 0.067ms returns 0x00
T25C8 000:424.217 JLINK_ReadReg(R0)
T25C8 000:424.263 - 0.067ms returns 0x00000000
T25C8 000:424.730 JLINK_HasError()
T25C8 000:424.754 JLINK_WriteReg(R0, 0x1A000000)
T25C8 000:424.773 - 0.028ms returns 0
T25C8 000:424.792 JLINK_WriteReg(R1, 0x00002000)
T25C8 000:424.810 - 0.027ms returns 0
T25C8 000:424.829 JLINK_WriteReg(R2, 0x000000FF)
T25C8 000:424.847 - 0.027ms returns 0
T25C8 000:424.866 JLINK_WriteReg(R3, 0x00000000)
T25C8 000:424.884 - 0.026ms returns 0
T25C8 000:424.903 JLINK_WriteReg(R4, 0x00000000)
T25C8 000:424.921 - 0.027ms returns 0
T25C8 000:424.939 JLINK_WriteReg(R5, 0x00000000)
T25C8 000:424.957 - 0.027ms returns 0
T25C8 000:424.976 JLINK_WriteReg(R6, 0x00000000)
T25C8 000:424.996 - 0.030ms returns 0
T25C8 000:425.016 JLINK_WriteReg(R7, 0x00000000)
T25C8 000:425.034 - 0.027ms returns 0
T25C8 000:425.053 JLINK_WriteReg(R8, 0x00000000)
T25C8 000:425.071 - 0.027ms returns 0
T25C8 000:425.090 JLINK_WriteReg(R9, 0x100002A4)
T25C8 000:425.108 - 0.027ms returns 0
T25C8 000:425.127 JLINK_WriteReg(R10, 0x00000000)
T25C8 000:425.145 - 0.027ms returns 0
T25C8 000:425.163 JLINK_WriteReg(R11, 0x00000000)
T25C8 000:425.182 - 0.027ms returns 0
T25C8 000:425.201 JLINK_WriteReg(R12, 0x00000000)
T25C8 000:425.219 - 0.027ms returns 0
T25C8 000:425.237 JLINK_WriteReg(R13 (SP), 0x10000800)
T25C8 000:425.256 - 0.027ms returns 0
T25C8 000:425.274 JLINK_WriteReg(R14, 0x10000001)
T25C8 000:425.292 - 0.027ms returns 0
T25C8 000:425.311 JLINK_WriteReg(R15 (PC), 0x10000020)
T25C8 000:425.329 - 0.027ms returns 0
T25C8 000:425.348 JLINK_WriteReg(XPSR, 0x01000000)
T25C8 000:425.366 - 0.027ms returns 0
T25C8 000:425.385 JLINK_WriteReg(MSP, 0x10000800)
T25C8 000:425.403 - 0.027ms returns 0
T25C8 000:425.422 JLINK_WriteReg(PSP, 0x10000800)
T25C8 000:425.440 - 0.027ms returns 0
T25C8 000:425.459 JLINK_WriteReg(CFBP, 0x00000000)
T25C8 000:425.477 - 0.027ms returns 0
T25C8 000:425.496 JLINK_SetBPEx(Addr = 0x10000000, Type = 0xFFFFFFF2)
T25C8 000:425.514 - 0.027ms returns 0x00000002
T25C8 000:425.533 JLINK_Go()
T25C8 000:425.555   CPU_ReadMem(4 bytes @ 0xE0001000)
T25C8 000:427.577 - 2.058ms
T25C8 000:427.603 JLINK_IsHalted()
T25C8 000:428.072 - 0.504ms returns FALSE
T25C8 000:428.136 JLINK_HasError()
T25C8 000:449.126 JLINK_IsHalted()
T25C8 000:450.715 - 1.601ms returns TRUE
T25C8 000:450.738 JLINK_ReadReg(R15 (PC))
T25C8 000:450.757 - 0.028ms returns 0x10000000
T25C8 000:450.782 JLINK_ClrBPEx(BPHandle = 0x00000002)
T25C8 000:450.829 - 0.071ms returns 0x00
T25C8 000:450.880 JLINK_ReadReg(R0)
T25C8 000:450.929 - 0.074ms returns 0x00000000
T25C8 000:451.830 JLINK_HasError()
T25C8 000:451.854 JLINK_WriteReg(R0, 0x1A002000)
T25C8 000:451.874 - 0.028ms returns 0
T25C8 000:451.893 JLINK_WriteReg(R1, 0x00002000)
T25C8 000:451.911 - 0.027ms returns 0
T25C8 000:451.930 JLINK_WriteReg(R2, 0x000000FF)
T25C8 000:451.949 - 0.027ms returns 0
T25C8 000:451.967 JLINK_WriteReg(R3, 0x00000000)
T25C8 000:451.990 - 0.032ms returns 0
T25C8 000:452.016 JLINK_WriteReg(R4, 0x00000000)
T25C8 000:452.034 - 0.027ms returns 0
T25C8 000:452.053 JLINK_WriteReg(R5, 0x00000000)
T25C8 000:452.071 - 0.027ms returns 0
T25C8 000:452.090 JLINK_WriteReg(R6, 0x00000000)
T25C8 000:452.109 - 0.027ms returns 0
T25C8 000:452.128 JLINK_WriteReg(R7, 0x00000000)
T25C8 000:452.146 - 0.027ms returns 0
T25C8 000:452.164 JLINK_WriteReg(R8, 0x00000000)
T25C8 000:452.183 - 0.027ms returns 0
T25C8 000:452.202 JLINK_WriteReg(R9, 0x100002A4)
T25C8 000:452.220 - 0.027ms returns 0
T25C8 000:452.239 JLINK_WriteReg(R10, 0x00000000)
T25C8 000:452.257 - 0.027ms returns 0
T25C8 000:452.276 JLINK_WriteReg(R11, 0x00000000)
T25C8 000:452.294 - 0.027ms returns 0
T25C8 000:452.313 JLINK_WriteReg(R12, 0x00000000)
T25C8 000:452.331 - 0.027ms returns 0
T25C8 000:452.350 JLINK_WriteReg(R13 (SP), 0x10000800)
T25C8 000:452.369 - 0.027ms returns 0
T25C8 000:452.387 JLINK_WriteReg(R14, 0x10000001)
T25C8 000:452.406 - 0.027ms returns 0
T25C8 000:452.424 JLINK_WriteReg(R15 (PC), 0x10000020)
T25C8 000:452.443 - 0.027ms returns 0
T25C8 000:452.462 JLINK_WriteReg(XPSR, 0x01000000)
T25C8 000:452.480 - 0.027ms returns 0
T25C8 000:452.499 JLINK_WriteReg(MSP, 0x10000800)
T25C8 000:452.517 - 0.027ms returns 0
T25C8 000:452.536 JLINK_WriteReg(PSP, 0x10000800)
T25C8 000:452.554 - 0.027ms returns 0
T25C8 000:452.573 JLINK_WriteReg(CFBP, 0x00000000)
T25C8 000:452.592 - 0.027ms returns 0
T25C8 000:452.611 JLINK_SetBPEx(Addr = 0x10000000, Type = 0xFFFFFFF2)
T25C8 000:452.630 - 0.028ms returns 0x00000003
T25C8 000:452.649 JLINK_Go()
T25C8 000:452.671   CPU_ReadMem(4 bytes @ 0xE0001000)
T25C8 000:454.786 - 2.149ms
T25C8 000:454.809 JLINK_IsHalted()
T25C8 000:456.381 - 1.588ms returns TRUE
T25C8 000:456.408 JLINK_ReadReg(R15 (PC))
T25C8 000:456.429 - 0.029ms returns 0x10000000
T25C8 000:456.448 JLINK_ClrBPEx(BPHandle = 0x00000003)
T25C8 000:456.467 - 0.027ms returns 0x00
T25C8 000:456.486 JLINK_ReadReg(R0)
T25C8 000:456.504 - 0.027ms returns 0x00000001
T25C8 000:456.523 JLINK_HasError()
T25C8 000:456.542 JLINK_WriteReg(R0, 0x1A002000)
T25C8 000:456.561 - 0.027ms returns 0
T25C8 000:456.580 JLINK_WriteReg(R1, 0x00002000)
T25C8 000:456.598 - 0.027ms returns 0
T25C8 000:456.617 JLINK_WriteReg(R2, 0x000000FF)
T25C8 000:456.636 - 0.027ms returns 0
T25C8 000:456.655 JLINK_WriteReg(R3, 0x00000000)
T25C8 000:456.673 - 0.027ms returns 0
T25C8 000:456.692 JLINK_WriteReg(R4, 0x00000000)
T25C8 000:456.710 - 0.027ms returns 0
T25C8 000:456.729 JLINK_WriteReg(R5, 0x00000000)
T25C8 000:456.748 - 0.027ms returns 0
T25C8 000:456.767 JLINK_WriteReg(R6, 0x00000000)
T25C8 000:456.785 - 0.027ms returns 0
T25C8 000:456.804 JLINK_WriteReg(R7, 0x00000000)
T25C8 000:456.823 - 0.027ms returns 0
T25C8 000:456.841 JLINK_WriteReg(R8, 0x00000000)
T25C8 000:456.861 - 0.028ms returns 0
T25C8 000:456.879 JLINK_WriteReg(R9, 0x100002A4)
T25C8 000:456.898 - 0.027ms returns 0
T25C8 000:456.917 JLINK_WriteReg(R10, 0x00000000)
T25C8 000:456.935 - 0.027ms returns 0
T25C8 000:456.954 JLINK_WriteReg(R11, 0x00000000)
T25C8 000:456.972 - 0.027ms returns 0
T25C8 000:456.991 JLINK_WriteReg(R12, 0x00000000)
T25C8 000:457.010 - 0.027ms returns 0
T25C8 000:457.029 JLINK_WriteReg(R13 (SP), 0x10000800)
T25C8 000:457.047 - 0.027ms returns 0
T25C8 000:457.066 JLINK_WriteReg(R14, 0x10000001)
T25C8 000:457.084 - 0.027ms returns 0
T25C8 000:457.103 JLINK_WriteReg(R15 (PC), 0x100000E8)
T25C8 000:457.121 - 0.027ms returns 0
T25C8 000:457.140 JLINK_WriteReg(XPSR, 0x01000000)
T25C8 000:457.159 - 0.027ms returns 0
T25C8 000:457.177 JLINK_WriteReg(MSP, 0x10000800)
T25C8 000:457.196 - 0.027ms returns 0
T25C8 000:457.215 JLINK_WriteReg(PSP, 0x10000800)
T25C8 000:457.233 - 0.027ms returns 0
T25C8 000:457.252 JLINK_WriteReg(CFBP, 0x00000000)
T25C8 000:457.273 - 0.030ms returns 0
T25C8 000:457.292 JLINK_SetBPEx(Addr = 0x10000000, Type = 0xFFFFFFF2)
T25C8 000:457.311 - 0.028ms returns 0x00000004
T25C8 000:457.331 JLINK_Go()
T25C8 000:457.352   CPU_ReadMem(4 bytes @ 0xE0001000)
T25C8 000:459.615 - 2.318ms
T25C8 000:459.677 JLINK_IsHalted()
T25C8 000:460.104 - 0.442ms returns FALSE
T25C8 000:460.131 JLINK_HasError()
T25C8 000:467.145 JLINK_IsHalted()
T25C8 000:467.795 - 0.684ms returns FALSE
T25C8 000:467.849 JLINK_HasError()
T25C8 000:469.251 JLINK_IsHalted()
T25C8 000:469.759 - 0.534ms returns FALSE
T25C8 000:469.814 JLINK_HasError()
T25C8 000:471.621 JLINK_IsHalted()
T25C8 000:472.115 - 0.504ms returns FALSE
T25C8 000:472.136 JLINK_HasError()
T25C8 000:474.053 JLINK_IsHalted()
T25C8 000:474.477 - 0.437ms returns FALSE
T25C8 000:474.501 JLINK_HasError()
T25C8 000:478.136 JLINK_IsHalted()
T25C8 000:478.635 - 0.536ms returns FALSE
T25C8 000:478.702 JLINK_HasError()
T25C8 000:480.180 JLINK_IsHalted()
T25C8 000:480.615 - 0.459ms returns FALSE
T25C8 000:480.665 JLINK_HasError()
T25C8 000:481.998 JLINK_IsHalted()
T25C8 000:482.632 - 0.660ms returns FALSE
T25C8 000:482.686 JLINK_HasError()
T25C8 000:483.994 JLINK_IsHalted()
T25C8 000:484.398 - 0.429ms returns FALSE
T25C8 000:484.448 JLINK_HasError()
T25C8 000:485.790 JLINK_IsHalted()
T25C8 000:486.256 - 0.492ms returns FALSE
T25C8 000:486.310 JLINK_HasError()
T25C8 000:487.761 JLINK_IsHalted()
T25C8 000:488.209 - 0.472ms returns FALSE
T25C8 000:488.258 JLINK_HasError()
T25C8 000:490.110 JLINK_IsHalted()
T25C8 000:490.511 - 0.411ms returns FALSE
T25C8 000:490.531 JLINK_HasError()
T25C8 000:497.353 JLINK_IsHalted()
T25C8 000:497.759 - 0.444ms returns FALSE
T25C8 000:497.826 JLINK_HasError()
T25C8 000:499.124 JLINK_IsHalted()
T25C8 000:499.634 - 0.537ms returns FALSE
T25C8 000:499.689 JLINK_HasError()
T25C8 000:501.129 JLINK_IsHalted()
T25C8 000:501.632 - 0.529ms returns FALSE
T25C8 000:501.686 JLINK_HasError()
T25C8 000:503.136 JLINK_IsHalted()
T25C8 000:503.632 - 0.521ms returns FALSE
T25C8 000:503.685 JLINK_HasError()
T25C8 000:505.270 JLINK_IsHalted()
T25C8 000:505.778 - 0.520ms returns FALSE
T25C8 000:505.801 JLINK_HasError()
T25C8 000:507.751 JLINK_IsHalted()
T25C8 000:508.144 - 0.402ms returns FALSE
T25C8 000:508.164 JLINK_HasError()
T25C8 000:509.506 JLINK_IsHalted()
T25C8 000:509.978 - 0.482ms returns FALSE
T25C8 000:509.999 JLINK_HasError()
T25C8 000:512.055 JLINK_IsHalted()
T25C8 000:512.520 - 0.474ms returns FALSE
T25C8 000:512.540 JLINK_HasError()
T25C8 000:513.856 JLINK_IsHalted()
T25C8 000:514.255 - 0.426ms returns FALSE
T25C8 000:514.310 JLINK_HasError()
T25C8 000:515.606 JLINK_IsHalted()
T25C8 000:515.977 - 0.380ms returns FALSE
T25C8 000:515.997 JLINK_HasError()
T25C8 000:517.622 JLINK_IsHalted()
T25C8 000:518.102 - 0.495ms returns FALSE
T25C8 000:518.129 JLINK_HasError()
T25C8 000:520.125 JLINK_IsHalted()
T25C8 000:520.628 - 0.532ms returns FALSE
T25C8 000:520.685 JLINK_HasError()
T25C8 000:522.189 JLINK_IsHalted()
T25C8 000:522.637 - 0.458ms returns FALSE
T25C8 000:522.658 JLINK_HasError()
T25C8 000:525.486 JLINK_IsHalted()
T25C8 000:526.095 - 0.623ms returns FALSE
T25C8 000:526.121 JLINK_HasError()
T25C8 000:528.131 JLINK_IsHalted()
T25C8 000:528.633 - 0.528ms returns FALSE
T25C8 000:528.688 JLINK_HasError()
T25C8 000:529.995 JLINK_IsHalted()
T25C8 000:530.507 - 0.538ms returns FALSE
T25C8 000:530.561 JLINK_HasError()
T25C8 000:532.006 JLINK_IsHalted()
T25C8 000:532.508 - 0.530ms returns FALSE
T25C8 000:532.564 JLINK_HasError()
T25C8 000:534.002 JLINK_IsHalted()
T25C8 000:534.481 - 0.503ms returns FALSE
T25C8 000:534.530 JLINK_HasError()
T25C8 000:535.999 JLINK_IsHalted()
T25C8 000:536.498 - 0.526ms returns FALSE
T25C8 000:536.552 JLINK_HasError()
T25C8 000:537.995 JLINK_IsHalted()
T25C8 000:538.353 - 0.373ms returns FALSE
T25C8 000:538.380 JLINK_HasError()
T25C8 000:540.005 JLINK_IsHalted()
T25C8 000:540.508 - 0.529ms returns FALSE
T25C8 000:540.563 JLINK_HasError()
T25C8 000:541.999 JLINK_IsHalted()
T25C8 000:542.541 - 0.572ms returns FALSE
T25C8 000:542.600 JLINK_HasError()
T25C8 000:544.675 JLINK_IsHalted()
T25C8 000:545.128 - 0.481ms returns FALSE
T25C8 000:545.187 JLINK_HasError()
T25C8 000:546.480 JLINK_IsHalted()
T25C8 000:546.866 - 0.395ms returns FALSE
T25C8 000:546.886 JLINK_HasError()
T25C8 000:548.504 JLINK_IsHalted()
T25C8 000:549.002 - 0.507ms returns FALSE
T25C8 000:549.022 JLINK_HasError()
T25C8 000:550.535 JLINK_IsHalted()
T25C8 000:551.004 - 0.482ms returns FALSE
T25C8 000:551.028 JLINK_HasError()
T25C8 000:552.487 JLINK_IsHalted()
T25C8 000:552.888 - 0.429ms returns FALSE
T25C8 000:552.942 JLINK_HasError()
T25C8 000:554.051 JLINK_IsHalted()
T25C8 000:554.519 - 0.495ms returns FALSE
T25C8 000:554.574 JLINK_HasError()
T25C8 000:555.875 JLINK_IsHalted()
T25C8 000:556.258 - 0.408ms returns FALSE
T25C8 000:556.311 JLINK_HasError()
T25C8 000:557.877 JLINK_IsHalted()
T25C8 000:558.257 - 0.405ms returns FALSE
T25C8 000:558.311 JLINK_HasError()
T25C8 000:559.881 JLINK_IsHalted()
T25C8 000:561.362 - 1.492ms returns TRUE
T25C8 000:561.383 JLINK_ReadReg(R15 (PC))
T25C8 000:561.401 - 0.027ms returns 0x10000000
T25C8 000:561.420 JLINK_ClrBPEx(BPHandle = 0x00000004)
T25C8 000:561.438 - 0.026ms returns 0x00
T25C8 000:561.456 JLINK_ReadReg(R0)
T25C8 000:561.474 - 0.027ms returns 0x00000000
T25C8 000:561.834 JLINK_HasError()
T25C8 000:561.858 JLINK_WriteReg(R0, 0x1A004000)
T25C8 000:561.879 - 0.032ms returns 0
T25C8 000:561.901 JLINK_WriteReg(R1, 0x00002000)
T25C8 000:561.918 - 0.026ms returns 0
T25C8 000:561.937 JLINK_WriteReg(R2, 0x000000FF)
T25C8 000:561.955 - 0.026ms returns 0
T25C8 000:561.973 JLINK_WriteReg(R3, 0x00000000)
T25C8 000:561.991 - 0.026ms returns 0
T25C8 000:562.009 JLINK_WriteReg(R4, 0x00000000)
T25C8 000:562.027 - 0.027ms returns 0
T25C8 000:562.045 JLINK_WriteReg(R5, 0x00000000)
T25C8 000:562.063 - 0.026ms returns 0
T25C8 000:562.081 JLINK_WriteReg(R6, 0x00000000)
T25C8 000:562.098 - 0.026ms returns 0
T25C8 000:562.117 JLINK_WriteReg(R7, 0x00000000)
T25C8 000:562.135 - 0.027ms returns 0
T25C8 000:562.153 JLINK_WriteReg(R8, 0x00000000)
T25C8 000:562.171 - 0.026ms returns 0
T25C8 000:562.189 JLINK_WriteReg(R9, 0x100002A4)
T25C8 000:562.206 - 0.026ms returns 0
T25C8 000:562.224 JLINK_WriteReg(R10, 0x00000000)
T25C8 000:562.242 - 0.026ms returns 0
T25C8 000:562.260 JLINK_WriteReg(R11, 0x00000000)
T25C8 000:562.278 - 0.026ms returns 0
T25C8 000:562.296 JLINK_WriteReg(R12, 0x00000000)
T25C8 000:562.314 - 0.026ms returns 0
T25C8 000:562.332 JLINK_WriteReg(R13 (SP), 0x10000800)
T25C8 000:562.351 - 0.027ms returns 0
T25C8 000:562.369 JLINK_WriteReg(R14, 0x10000001)
T25C8 000:562.386 - 0.026ms returns 0
T25C8 000:562.405 JLINK_WriteReg(R15 (PC), 0x10000020)
T25C8 000:562.422 - 0.026ms returns 0
T25C8 000:562.440 JLINK_WriteReg(XPSR, 0x01000000)
T25C8 000:562.458 - 0.026ms returns 0
T25C8 000:562.476 JLINK_WriteReg(MSP, 0x10000800)
T25C8 000:562.494 - 0.027ms returns 0
T25C8 000:562.513 JLINK_WriteReg(PSP, 0x10000800)
T25C8 000:562.531 - 0.026ms returns 0
T25C8 000:562.549 JLINK_WriteReg(CFBP, 0x00000000)
T25C8 000:562.567 - 0.027ms returns 0
T25C8 000:562.586 JLINK_SetBPEx(Addr = 0x10000000, Type = 0xFFFFFFF2)
T25C8 000:562.604 - 0.027ms returns 0x00000005
T25C8 000:562.622 JLINK_Go()
T25C8 000:562.648   CPU_ReadMem(4 bytes @ 0xE0001000)
T25C8 000:564.662 - 2.053ms
T25C8 000:564.691 JLINK_IsHalted()
T25C8 000:566.301 - 1.626ms returns TRUE
T25C8 000:566.330 JLINK_ReadReg(R15 (PC))
T25C8 000:566.348 - 0.027ms returns 0x10000000
T25C8 000:566.369 JLINK_ClrBPEx(BPHandle = 0x00000005)
T25C8 000:566.387 - 0.027ms returns 0x00
T25C8 000:566.408 JLINK_ReadReg(R0)
T25C8 000:566.426 - 0.027ms returns 0x00000001
T25C8 000:566.446 JLINK_HasError()
T25C8 000:566.467 JLINK_WriteReg(R0, 0x1A004000)
T25C8 000:566.486 - 0.027ms returns 0
T25C8 000:566.506 JLINK_WriteReg(R1, 0x00002000)
T25C8 000:566.524 - 0.027ms returns 0
T25C8 000:566.544 JLINK_WriteReg(R2, 0x000000FF)
T25C8 000:566.563 - 0.027ms returns 0
T25C8 000:566.583 JLINK_WriteReg(R3, 0x00000000)
T25C8 000:566.602 - 0.027ms returns 0
T25C8 000:566.622 JLINK_WriteReg(R4, 0x00000000)
T25C8 000:566.640 - 0.027ms returns 0
T25C8 000:566.660 JLINK_WriteReg(R5, 0x00000000)
T25C8 000:566.678 - 0.027ms returns 0
T25C8 000:566.699 JLINK_WriteReg(R6, 0x00000000)
T25C8 000:566.717 - 0.027ms returns 0
T25C8 000:566.738 JLINK_WriteReg(R7, 0x00000000)
T25C8 000:566.756 - 0.027ms returns 0
T25C8 000:566.776 JLINK_WriteReg(R8, 0x00000000)
T25C8 000:566.795 - 0.027ms returns 0
T25C8 000:566.815 JLINK_WriteReg(R9, 0x100002A4)
T25C8 000:566.833 - 0.027ms returns 0
T25C8 000:566.854 JLINK_WriteReg(R10, 0x00000000)
T25C8 000:566.872 - 0.027ms returns 0
T25C8 000:566.892 JLINK_WriteReg(R11, 0x00000000)
T25C8 000:566.910 - 0.027ms returns 0
T25C8 000:566.930 JLINK_WriteReg(R12, 0x00000000)
T25C8 000:566.948 - 0.027ms returns 0
T25C8 000:566.969 JLINK_WriteReg(R13 (SP), 0x10000800)
T25C8 000:566.987 - 0.027ms returns 0
T25C8 000:567.008 JLINK_WriteReg(R14, 0x10000001)
T25C8 000:567.026 - 0.027ms returns 0
T25C8 000:567.046 JLINK_WriteReg(R15 (PC), 0x100000E8)
T25C8 000:567.064 - 0.027ms returns 0
T25C8 000:567.085 JLINK_WriteReg(XPSR, 0x01000000)
T25C8 000:567.103 - 0.027ms returns 0
T25C8 000:567.123 JLINK_WriteReg(MSP, 0x10000800)
T25C8 000:567.142 - 0.027ms returns 0
T25C8 000:567.162 JLINK_WriteReg(PSP, 0x10000800)
T25C8 000:567.180 - 0.027ms returns 0
T25C8 000:567.200 JLINK_WriteReg(CFBP, 0x00000000)
T25C8 000:567.219 - 0.027ms returns 0
T25C8 000:567.239 JLINK_SetBPEx(Addr = 0x10000000, Type = 0xFFFFFFF2)
T25C8 000:567.258 - 0.027ms returns 0x00000006
T25C8 000:567.278 JLINK_Go()
T25C8 000:567.300   CPU_ReadMem(4 bytes @ 0xE0001000)
T25C8 000:569.327 - 2.061ms
T25C8 000:569.352 JLINK_IsHalted()
T25C8 000:569.746 - 0.428ms returns FALSE
T25C8 000:569.812 JLINK_HasError()
T25C8 000:579.358 JLINK_IsHalted()
T25C8 000:579.886 - 0.555ms returns FALSE
T25C8 000:579.941 JLINK_HasError()
T25C8 000:581.754 JLINK_IsHalted()
T25C8 000:582.228 - 0.484ms returns FALSE
T25C8 000:582.249 JLINK_HasError()
T25C8 000:583.861 JLINK_IsHalted()
T25C8 000:584.392 - 0.543ms returns FALSE
T25C8 000:584.416 JLINK_HasError()
T25C8 000:587.911 JLINK_IsHalted()
T25C8 000:588.379 - 0.501ms returns FALSE
T25C8 000:588.440 JLINK_HasError()
T25C8 000:590.239 JLINK_IsHalted()
T25C8 000:590.759 - 0.546ms returns FALSE
T25C8 000:590.813 JLINK_HasError()
T25C8 000:592.385 JLINK_IsHalted()
T25C8 000:592.889 - 0.518ms returns FALSE
T25C8 000:592.915 JLINK_HasError()
T25C8 000:596.457 JLINK_IsHalted()
T25C8 000:596.905 - 0.458ms returns FALSE
T25C8 000:596.925 JLINK_HasError()
T25C8 000:598.767 JLINK_IsHalted()
T25C8 000:599.251 - 0.507ms returns FALSE
T25C8 000:599.300 JLINK_HasError()
T25C8 000:601.048 JLINK_IsHalted()
T25C8 000:601.530 - 0.491ms returns FALSE
T25C8 000:601.550 JLINK_HasError()
T25C8 000:606.358 JLINK_IsHalted()
T25C8 000:606.887 - 0.557ms returns FALSE
T25C8 000:606.944 JLINK_HasError()
T25C8 000:608.499 JLINK_IsHalted()
T25C8 000:608.985 - 0.511ms returns FALSE
T25C8 000:609.036 JLINK_HasError()
T25C8 000:611.610 JLINK_IsHalted()
T25C8 000:612.135 - 0.553ms returns FALSE
T25C8 000:612.192 JLINK_HasError()
T25C8 000:614.205 JLINK_IsHalted()
T25C8 000:614.640 - 0.455ms returns FALSE
T25C8 000:614.671 JLINK_HasError()
T25C8 000:616.506 JLINK_IsHalted()
T25C8 000:617.036 - 0.544ms returns FALSE
T25C8 000:617.062 JLINK_HasError()
T25C8 000:620.452 JLINK_IsHalted()
T25C8 000:621.210 - 0.769ms returns FALSE
T25C8 000:621.232 JLINK_HasError()
T25C8 000:622.439 JLINK_IsHalted()
T25C8 000:622.884 - 0.471ms returns FALSE
T25C8 000:622.938 JLINK_HasError()
T25C8 000:624.748 JLINK_IsHalted()
T25C8 000:625.253 - 0.515ms returns FALSE
T25C8 000:625.273 JLINK_HasError()
T25C8 000:627.798 JLINK_IsHalted()
T25C8 000:628.261 - 0.474ms returns FALSE
T25C8 000:628.283 JLINK_HasError()
T25C8 000:630.304 JLINK_IsHalted()
T25C8 000:630.775 - 0.497ms returns FALSE
T25C8 000:630.827 JLINK_HasError()
T25C8 000:632.708 JLINK_IsHalted()
T25C8 000:633.252 - 0.558ms returns FALSE
T25C8 000:633.278 JLINK_HasError()
T25C8 000:637.167 JLINK_IsHalted()
T25C8 000:637.641 - 0.502ms returns FALSE
T25C8 000:637.699 JLINK_HasError()
T25C8 000:639.307 JLINK_IsHalted()
T25C8 000:639.768 - 0.492ms returns FALSE
T25C8 000:639.828 JLINK_HasError()
T25C8 000:642.844 JLINK_IsHalted()
T25C8 000:643.256 - 0.434ms returns FALSE
T25C8 000:643.295 JLINK_HasError()
T25C8 000:645.115 JLINK_IsHalted()
T25C8 000:645.635 - 0.546ms returns FALSE
T25C8 000:645.689 JLINK_HasError()
T25C8 000:647.248 JLINK_IsHalted()
T25C8 000:647.772 - 0.556ms returns FALSE
T25C8 000:647.838 JLINK_HasError()
T25C8 000:649.400 JLINK_IsHalted()
T25C8 000:649.878 - 0.492ms returns FALSE
T25C8 000:649.903 JLINK_HasError()
T25C8 000:652.407 JLINK_IsHalted()
T25C8 000:652.896 - 0.528ms returns FALSE
T25C8 000:652.966 JLINK_HasError()
T25C8 000:654.391 JLINK_IsHalted()
T25C8 000:654.883 - 0.519ms returns FALSE
T25C8 000:654.938 JLINK_HasError()
T25C8 000:656.401 JLINK_IsHalted()
T25C8 000:656.885 - 0.510ms returns FALSE
T25C8 000:656.939 JLINK_HasError()
T25C8 000:658.510 JLINK_IsHalted()
T25C8 000:658.995 - 0.515ms returns FALSE
T25C8 000:659.051 JLINK_HasError()
T25C8 000:661.882 JLINK_IsHalted()
T25C8 000:662.373 - 0.501ms returns FALSE
T25C8 000:662.394 JLINK_HasError()
T25C8 000:664.475 JLINK_IsHalted()
T25C8 000:664.982 - 0.519ms returns FALSE
T25C8 000:665.006 JLINK_HasError()
T25C8 000:666.870 JLINK_IsHalted()
T25C8 000:667.366 - 0.508ms returns FALSE
T25C8 000:667.390 JLINK_HasError()
T25C8 000:669.866 JLINK_IsHalted()
T25C8 000:671.349 - 1.494ms returns TRUE
T25C8 000:671.371 JLINK_ReadReg(R15 (PC))
T25C8 000:671.391 - 0.028ms returns 0x10000000
T25C8 000:671.410 JLINK_ClrBPEx(BPHandle = 0x00000006)
T25C8 000:671.429 - 0.028ms returns 0x00
T25C8 000:671.448 JLINK_ReadReg(R0)
T25C8 000:671.466 - 0.027ms returns 0x00000000
T25C8 000:671.829 JLINK_HasError()
T25C8 000:671.853 JLINK_WriteReg(R0, 0x1A006000)
T25C8 000:671.873 - 0.028ms returns 0
T25C8 000:671.892 JLINK_WriteReg(R1, 0x00002000)
T25C8 000:671.911 - 0.027ms returns 0
T25C8 000:671.930 JLINK_WriteReg(R2, 0x000000FF)
T25C8 000:671.948 - 0.027ms returns 0
T25C8 000:671.967 JLINK_WriteReg(R3, 0x00000000)
T25C8 000:671.985 - 0.027ms returns 0
T25C8 000:672.004 JLINK_WriteReg(R4, 0x00000000)
T25C8 000:672.022 - 0.027ms returns 0
T25C8 000:672.041 JLINK_WriteReg(R5, 0x00000000)
T25C8 000:672.060 - 0.027ms returns 0
T25C8 000:672.079 JLINK_WriteReg(R6, 0x00000000)
T25C8 000:672.097 - 0.027ms returns 0
T25C8 000:672.116 JLINK_WriteReg(R7, 0x00000000)
T25C8 000:672.134 - 0.027ms returns 0
T25C8 000:672.153 JLINK_WriteReg(R8, 0x00000000)
T25C8 000:672.171 - 0.027ms returns 0
T25C8 000:672.190 JLINK_WriteReg(R9, 0x100002A4)
T25C8 000:672.208 - 0.027ms returns 0
T25C8 000:672.227 JLINK_WriteReg(R10, 0x00000000)
T25C8 000:672.245 - 0.027ms returns 0
T25C8 000:672.264 JLINK_WriteReg(R11, 0x00000000)
T25C8 000:672.282 - 0.027ms returns 0
T25C8 000:672.301 JLINK_WriteReg(R12, 0x00000000)
T25C8 000:672.320 - 0.027ms returns 0
T25C8 000:672.339 JLINK_WriteReg(R13 (SP), 0x10000800)
T25C8 000:672.357 - 0.027ms returns 0
T25C8 000:672.376 JLINK_WriteReg(R14, 0x10000001)
T25C8 000:672.396 - 0.031ms returns 0
T25C8 000:672.417 JLINK_WriteReg(R15 (PC), 0x10000020)
T25C8 000:672.435 - 0.026ms returns 0
T25C8 000:672.453 JLINK_WriteReg(XPSR, 0x01000000)
T25C8 000:672.471 - 0.027ms returns 0
T25C8 000:672.489 JLINK_WriteReg(MSP, 0x10000800)
T25C8 000:672.507 - 0.026ms returns 0
T25C8 000:672.525 JLINK_WriteReg(PSP, 0x10000800)
T25C8 000:672.542 - 0.026ms returns 0
T25C8 000:672.561 JLINK_WriteReg(CFBP, 0x00000000)
T25C8 000:672.578 - 0.026ms returns 0
T25C8 000:672.596 JLINK_SetBPEx(Addr = 0x10000000, Type = 0xFFFFFFF2)
T25C8 000:672.614 - 0.026ms returns 0x00000007
T25C8 000:672.633 JLINK_Go()
T25C8 000:672.654   CPU_ReadMem(4 bytes @ 0xE0001000)
T25C8 000:674.689 - 2.088ms
T25C8 000:674.751 JLINK_IsHalted()
T25C8 000:676.470 - 1.734ms returns TRUE
T25C8 000:676.498 JLINK_ReadReg(R15 (PC))
T25C8 000:676.518 - 0.029ms returns 0x10000000
T25C8 000:676.539 JLINK_ClrBPEx(BPHandle = 0x00000007)
T25C8 000:676.558 - 0.028ms returns 0x00
T25C8 000:676.578 JLINK_ReadReg(R0)
T25C8 000:676.597 - 0.027ms returns 0x00000001
T25C8 000:676.617 JLINK_HasError()
T25C8 000:676.638 JLINK_WriteReg(R0, 0x1A006000)
T25C8 000:676.656 - 0.027ms returns 0
T25C8 000:676.677 JLINK_WriteReg(R1, 0x00002000)
T25C8 000:676.695 - 0.027ms returns 0
T25C8 000:676.715 JLINK_WriteReg(R2, 0x000000FF)
T25C8 000:676.734 - 0.027ms returns 0
T25C8 000:676.754 JLINK_WriteReg(R3, 0x00000000)
T25C8 000:676.772 - 0.027ms returns 0
T25C8 000:676.792 JLINK_WriteReg(R4, 0x00000000)
T25C8 000:676.811 - 0.027ms returns 0
T25C8 000:676.831 JLINK_WriteReg(R5, 0x00000000)
T25C8 000:676.849 - 0.027ms returns 0
T25C8 000:676.869 JLINK_WriteReg(R6, 0x00000000)
T25C8 000:676.888 - 0.027ms returns 0
T25C8 000:676.908 JLINK_WriteReg(R7, 0x00000000)
T25C8 000:676.926 - 0.027ms returns 0
T25C8 000:676.946 JLINK_WriteReg(R8, 0x00000000)
T25C8 000:676.965 - 0.027ms returns 0
T25C8 000:676.985 JLINK_WriteReg(R9, 0x100002A4)
T25C8 000:677.004 - 0.027ms returns 0
T25C8 000:677.024 JLINK_WriteReg(R10, 0x00000000)
T25C8 000:677.042 - 0.027ms returns 0
T25C8 000:677.062 JLINK_WriteReg(R11, 0x00000000)
T25C8 000:677.081 - 0.027ms returns 0
T25C8 000:677.101 JLINK_WriteReg(R12, 0x00000000)
T25C8 000:677.119 - 0.027ms returns 0
T25C8 000:677.140 JLINK_WriteReg(R13 (SP), 0x10000800)
T25C8 000:677.158 - 0.028ms returns 0
T25C8 000:677.179 JLINK_WriteReg(R14, 0x10000001)
T25C8 000:677.197 - 0.229ms returns 0
T25C8 000:677.422 JLINK_WriteReg(R15 (PC), 0x100000E8)
T25C8 000:677.450 - 0.036ms returns 0
T25C8 000:677.470 JLINK_WriteReg(XPSR, 0x01000000)
T25C8 000:677.489 - 0.027ms returns 0
T25C8 000:677.509 JLINK_WriteReg(MSP, 0x10000800)
T25C8 000:677.527 - 0.027ms returns 0
T25C8 000:677.548 JLINK_WriteReg(PSP, 0x10000800)
T25C8 000:677.566 - 0.027ms returns 0
T25C8 000:677.586 JLINK_WriteReg(CFBP, 0x00000000)
T25C8 000:677.605 - 0.027ms returns 0
T25C8 000:677.625 JLINK_SetBPEx(Addr = 0x10000000, Type = 0xFFFFFFF2)
T25C8 000:677.645 - 0.028ms returns 0x00000008
T25C8 000:677.665 JLINK_Go()
T25C8 000:677.687   CPU_ReadMem(4 bytes @ 0xE0001000)
T25C8 000:679.686 - 2.056ms
T25C8 000:679.752 JLINK_IsHalted()
T25C8 000:680.230 - 0.487ms returns FALSE
T25C8 000:680.252 JLINK_HasError()
T25C8 000:689.392 JLINK_IsHalted()
T25C8 000:689.919 - 0.556ms returns FALSE
T25C8 000:689.977 JLINK_HasError()
T25C8 000:692.722 JLINK_IsHalted()
T25C8 000:693.278 - 0.571ms returns FALSE
T25C8 000:693.305 JLINK_HasError()
T25C8 000:695.126 JLINK_IsHalted()
T25C8 000:695.629 - 0.534ms returns FALSE
T25C8 000:695.689 JLINK_HasError()
T25C8 000:697.221 JLINK_IsHalted()
T25C8 000:697.679 - 0.490ms returns FALSE
T25C8 000:697.741 JLINK_HasError()
T25C8 000:701.342 JLINK_IsHalted()
T25C8 000:701.887 - 0.571ms returns FALSE
T25C8 000:701.942 JLINK_HasError()
T25C8 000:703.757 JLINK_IsHalted()
T25C8 000:704.261 - 0.530ms returns FALSE
T25C8 000:704.303 JLINK_HasError()
T25C8 000:705.882 JLINK_IsHalted()
T25C8 000:706.370 - 0.497ms returns FALSE
T25C8 000:706.390 JLINK_HasError()
T25C8 000:708.409 JLINK_IsHalted()
T25C8 000:708.856 - 0.462ms returns FALSE
T25C8 000:708.882 JLINK_HasError()
T25C8 000:711.625 JLINK_IsHalted()
T25C8 000:711.982 - 0.371ms returns FALSE
T25C8 000:712.008 JLINK_HasError()
T25C8 000:716.400 JLINK_IsHalted()
T25C8 000:716.856 - 0.470ms returns FALSE
T25C8 000:716.882 JLINK_HasError()
T25C8 000:719.501 JLINK_IsHalted()
T25C8 000:719.857 - 0.370ms returns FALSE
T25C8 000:719.884 JLINK_HasError()
T25C8 000:721.061 JLINK_IsHalted()
T25C8 000:721.486 - 0.449ms returns FALSE
T25C8 000:721.536 JLINK_HasError()
T25C8 000:723.140 JLINK_IsHalted()
T25C8 000:723.527 - 0.418ms returns FALSE
T25C8 000:723.587 JLINK_HasError()
T25C8 000:727.234 JLINK_IsHalted()
T25C8 000:727.758 - 0.535ms returns FALSE
T25C8 000:727.780 JLINK_HasError()
T25C8 000:729.399 JLINK_IsHalted()
T25C8 000:729.888 - 0.515ms returns FALSE
T25C8 000:729.942 JLINK_HasError()
T25C8 000:731.401 JLINK_IsHalted()
T25C8 000:731.896 - 0.525ms returns FALSE
T25C8 000:731.955 JLINK_HasError()
T25C8 000:734.509 JLINK_IsHalted()
T25C8 000:734.997 - 0.522ms returns FALSE
T25C8 000:735.059 JLINK_HasError()
T25C8 000:736.876 JLINK_IsHalted()
T25C8 000:737.385 - 0.533ms returns FALSE
T25C8 000:737.435 JLINK_HasError()
T25C8 000:739.036 JLINK_IsHalted()
T25C8 000:739.495 - 0.484ms returns FALSE
T25C8 000:739.546 JLINK_HasError()
T25C8 000:744.211 JLINK_IsHalted()
T25C8 000:744.747 - 0.570ms returns FALSE
T25C8 000:744.809 JLINK_HasError()
T25C8 000:746.969 JLINK_IsHalted()
T25C8 000:747.364 - 0.405ms returns FALSE
T25C8 000:747.385 JLINK_HasError()
T25C8 000:749.249 JLINK_IsHalted()
T25C8 000:749.763 - 0.541ms returns FALSE
T25C8 000:749.819 JLINK_HasError()
T25C8 000:753.397 JLINK_IsHalted()
T25C8 000:753.888 - 0.518ms returns FALSE
T25C8 000:753.944 JLINK_HasError()
T25C8 000:755.597 JLINK_IsHalted()
T25C8 000:756.135 - 0.569ms returns FALSE
T25C8 000:756.194 JLINK_HasError()
T25C8 000:757.553 JLINK_IsHalted()
T25C8 000:757.983 - 0.440ms returns FALSE
T25C8 000:758.003 JLINK_HasError()
T25C8 000:760.879 JLINK_IsHalted()
T25C8 000:761.391 - 0.539ms returns FALSE
T25C8 000:761.433 JLINK_HasError()
T25C8 000:763.015 JLINK_IsHalted()
T25C8 000:763.507 - 0.504ms returns FALSE
T25C8 000:763.529 JLINK_HasError()
T25C8 000:765.029 JLINK_IsHalted()
T25C8 000:765.514 - 0.500ms returns FALSE
T25C8 000:765.541 JLINK_HasError()
T25C8 000:769.164 JLINK_IsHalted()
T25C8 000:769.607 - 0.457ms returns FALSE
T25C8 000:769.633 JLINK_HasError()
T25C8 000:771.299 JLINK_IsHalted()
T25C8 000:771.737 - 0.465ms returns FALSE
T25C8 000:771.791 JLINK_HasError()
T25C8 000:773.548 JLINK_IsHalted()
T25C8 000:773.984 - 0.446ms returns FALSE
T25C8 000:774.005 JLINK_HasError()
T25C8 000:776.682 JLINK_IsHalted()
T25C8 000:777.135 - 0.477ms returns FALSE
T25C8 000:777.186 JLINK_HasError()
T25C8 000:778.810 JLINK_IsHalted()
T25C8 000:779.253 - 0.467ms returns FALSE
T25C8 000:779.302 JLINK_HasError()
T25C8 000:780.948 JLINK_IsHalted()
T25C8 000:782.626 - 1.711ms returns TRUE
T25C8 000:782.685 JLINK_ReadReg(R15 (PC))
T25C8 000:782.733 - 0.070ms returns 0x10000000
T25C8 000:782.780 JLINK_ClrBPEx(BPHandle = 0x00000008)
T25C8 000:782.826 - 0.068ms returns 0x00
T25C8 000:782.873 JLINK_ReadReg(R0)
T25C8 000:782.918 - 0.068ms returns 0x00000000
T25C8 000:783.587 JLINK_HasError()
T25C8 000:783.612 JLINK_WriteReg(R0, 0x1A008000)
T25C8 000:783.632 - 0.029ms returns 0
T25C8 000:783.651 JLINK_WriteReg(R1, 0x00002000)
T25C8 000:783.670 - 0.028ms returns 0
T25C8 000:783.689 JLINK_WriteReg(R2, 0x000000FF)
T25C8 000:783.708 - 0.028ms returns 0
T25C8 000:783.727 JLINK_WriteReg(R3, 0x00000000)
T25C8 000:783.746 - 0.027ms returns 0
T25C8 000:783.765 JLINK_WriteReg(R4, 0x00000000)
T25C8 000:783.784 - 0.028ms returns 0
T25C8 000:783.803 JLINK_WriteReg(R5, 0x00000000)
T25C8 000:783.821 - 0.027ms returns 0
T25C8 000:783.840 JLINK_WriteReg(R6, 0x00000000)
T25C8 000:783.859 - 0.028ms returns 0
T25C8 000:783.878 JLINK_WriteReg(R7, 0x00000000)
T25C8 000:783.896 - 0.026ms returns 0
T25C8 000:783.914 JLINK_WriteReg(R8, 0x00000000)
T25C8 000:783.932 - 0.026ms returns 0
T25C8 000:783.950 JLINK_WriteReg(R9, 0x100002A4)
T25C8 000:783.968 - 0.026ms returns 0
T25C8 000:783.987 JLINK_WriteReg(R10, 0x00000000)
T25C8 000:784.004 - 0.026ms returns 0
T25C8 000:784.023 JLINK_WriteReg(R11, 0x00000000)
T25C8 000:784.041 - 0.026ms returns 0
T25C8 000:784.059 JLINK_WriteReg(R12, 0x00000000)
T25C8 000:784.077 - 0.026ms returns 0
T25C8 000:784.095 JLINK_WriteReg(R13 (SP), 0x10000800)
T25C8 000:784.113 - 0.026ms returns 0
T25C8 000:784.132 JLINK_WriteReg(R14, 0x10000001)
T25C8 000:784.150 - 0.026ms returns 0
T25C8 000:784.168 JLINK_WriteReg(R15 (PC), 0x10000020)
T25C8 000:784.186 - 0.026ms returns 0
T25C8 000:784.204 JLINK_WriteReg(XPSR, 0x01000000)
T25C8 000:784.222 - 0.026ms returns 0
T25C8 000:784.240 JLINK_WriteReg(MSP, 0x10000800)
T25C8 000:784.258 - 0.027ms returns 0
T25C8 000:784.277 JLINK_WriteReg(PSP, 0x10000800)
T25C8 000:784.295 - 0.026ms returns 0
T25C8 000:784.313 JLINK_WriteReg(CFBP, 0x00000000)
T25C8 000:784.331 - 0.027ms returns 0
T25C8 000:784.350 JLINK_SetBPEx(Addr = 0x10000000, Type = 0xFFFFFFF2)
T25C8 000:784.368 - 0.027ms returns 0x00000009
T25C8 000:784.388 JLINK_Go()
T25C8 000:784.416   CPU_ReadMem(4 bytes @ 0xE0001000)
T25C8 000:786.416 - 2.040ms
T25C8 000:786.439 JLINK_IsHalted()
T25C8 000:787.966 - 1.538ms returns TRUE
T25C8 000:787.989 JLINK_ReadReg(R15 (PC))
T25C8 000:788.008 - 0.028ms returns 0x10000000
T25C8 000:788.028 JLINK_ClrBPEx(BPHandle = 0x00000009)
T25C8 000:788.046 - 0.028ms returns 0x00
T25C8 000:788.066 JLINK_ReadReg(R0)
T25C8 000:788.084 - 0.030ms returns 0x00000001
T25C8 000:788.107 JLINK_HasError()
T25C8 000:788.126 JLINK_WriteReg(R0, 0x1A008000)
T25C8 000:788.146 - 0.028ms returns 0
T25C8 000:788.165 JLINK_WriteReg(R1, 0x00002000)
T25C8 000:788.184 - 0.028ms returns 0
T25C8 000:788.204 JLINK_WriteReg(R2, 0x000000FF)
T25C8 000:788.223 - 0.029ms returns 0
T25C8 000:788.243 JLINK_WriteReg(R3, 0x00000000)
T25C8 000:788.263 - 0.028ms returns 0
T25C8 000:788.282 JLINK_WriteReg(R4, 0x00000000)
T25C8 000:788.301 - 0.028ms returns 0
T25C8 000:788.321 JLINK_WriteReg(R5, 0x00000000)
T25C8 000:788.340 - 0.028ms returns 0
T25C8 000:788.359 JLINK_WriteReg(R6, 0x00000000)
T25C8 000:788.378 - 0.028ms returns 0
T25C8 000:788.397 JLINK_WriteReg(R7, 0x00000000)
T25C8 000:788.416 - 0.032ms returns 0
T25C8 000:788.440 JLINK_WriteReg(R8, 0x00000000)
T25C8 000:788.458 - 0.028ms returns 0
T25C8 000:788.478 JLINK_WriteReg(R9, 0x100002A4)
T25C8 000:788.496 - 0.028ms returns 0
T25C8 000:788.516 JLINK_WriteReg(R10, 0x00000000)
T25C8 000:788.535 - 0.028ms returns 0
T25C8 000:788.554 JLINK_WriteReg(R11, 0x00000000)
T25C8 000:788.573 - 0.028ms returns 0
T25C8 000:788.592 JLINK_WriteReg(R12, 0x00000000)
T25C8 000:788.611 - 0.028ms returns 0
T25C8 000:788.631 JLINK_WriteReg(R13 (SP), 0x10000800)
T25C8 000:788.649 - 0.028ms returns 0
T25C8 000:788.669 JLINK_WriteReg(R14, 0x10000001)
T25C8 000:788.688 - 0.028ms returns 0
T25C8 000:788.707 JLINK_WriteReg(R15 (PC), 0x100000E8)
T25C8 000:788.726 - 0.028ms returns 0
T25C8 000:788.745 JLINK_WriteReg(XPSR, 0x01000000)
T25C8 000:788.764 - 0.028ms returns 0
T25C8 000:788.783 JLINK_WriteReg(MSP, 0x10000800)
T25C8 000:788.802 - 0.028ms returns 0
T25C8 000:788.821 JLINK_WriteReg(PSP, 0x10000800)
T25C8 000:788.840 - 0.028ms returns 0
T25C8 000:788.860 JLINK_WriteReg(CFBP, 0x00000000)
T25C8 000:788.879 - 0.028ms returns 0
T25C8 000:788.898 JLINK_SetBPEx(Addr = 0x10000000, Type = 0xFFFFFFF2)
T25C8 000:788.917 - 0.028ms returns 0x0000000A
T25C8 000:788.937 JLINK_Go()
T25C8 000:788.958   CPU_ReadMem(4 bytes @ 0xE0001000)
T25C8 000:790.959 - 2.057ms
T25C8 000:791.022 JLINK_IsHalted()
T25C8 000:791.502 - 0.489ms returns FALSE
T25C8 000:791.522 JLINK_HasError()
T25C8 000:799.538 JLINK_IsHalted()
T25C8 000:800.020 - 0.510ms returns FALSE
T25C8 000:800.079 JLINK_HasError()
T25C8 000:802.088 JLINK_IsHalted()
T25C8 000:802.488 - 0.410ms returns FALSE
T25C8 000:802.509 JLINK_HasError()
T25C8 000:804.503 JLINK_IsHalted()
T25C8 000:804.975 - 0.484ms returns FALSE
T25C8 000:804.998 JLINK_HasError()
T25C8 000:806.909 JLINK_IsHalted()
T25C8 000:807.377 - 0.492ms returns FALSE
T25C8 000:807.427 JLINK_HasError()
T25C8 000:808.934 JLINK_IsHalted()
T25C8 000:809.387 - 0.476ms returns FALSE
T25C8 000:809.436 JLINK_HasError()
T25C8 000:811.031 JLINK_IsHalted()
T25C8 000:811.491 - 0.469ms returns FALSE
T25C8 000:811.511 JLINK_HasError()
T25C8 000:813.157 JLINK_IsHalted()
T25C8 000:813.637 - 0.505ms returns FALSE
T25C8 000:813.688 JLINK_HasError()
T25C8 000:815.172 JLINK_IsHalted()
T25C8 000:815.621 - 0.472ms returns FALSE
T25C8 000:815.670 JLINK_HasError()
T25C8 000:817.272 JLINK_IsHalted()
T25C8 000:817.736 - 0.488ms returns FALSE
T25C8 000:817.786 JLINK_HasError()
T25C8 000:819.276 JLINK_IsHalted()
T25C8 000:819.741 - 0.476ms returns FALSE
T25C8 000:819.763 JLINK_HasError()
T25C8 000:822.996 JLINK_IsHalted()
T25C8 000:823.512 - 0.537ms returns FALSE
T25C8 000:823.543 JLINK_HasError()
T25C8 000:825.177 JLINK_IsHalted()
T25C8 000:825.625 - 0.459ms returns FALSE
T25C8 000:825.646 JLINK_HasError()
T25C8 000:827.189 JLINK_IsHalted()
T25C8 000:827.629 - 0.464ms returns FALSE
T25C8 000:827.679 JLINK_HasError()
T25C8 000:829.312 JLINK_IsHalted()
T25C8 000:829.733 - 0.430ms returns FALSE
T25C8 000:829.753 JLINK_HasError()
T25C8 000:831.349 JLINK_IsHalted()
T25C8 000:831.761 - 0.438ms returns FALSE
T25C8 000:831.815 JLINK_HasError()
T25C8 000:833.450 JLINK_IsHalted()
T25C8 000:833.887 - 0.463ms returns FALSE
T25C8 000:833.941 JLINK_HasError()
T25C8 000:835.570 JLINK_IsHalted()
T25C8 000:835.985 - 0.424ms returns FALSE
T25C8 000:836.006 JLINK_HasError()
T25C8 000:837.636 JLINK_IsHalted()
T25C8 000:838.137 - 0.527ms returns FALSE
